
T2FCC 000:310 SEGGER J-Link V4.90e Log File (0000ms, 0272ms total)
T2FCC 000:310 DLL Compiled: Sep  8 2014 18:46:31 (0000ms, 0272ms total)
T2FCC 000:310 Logging started @ 2014-09-15 14:22 (0000ms, 0272ms total)
T2FCC 000:310 JLINK_SetWarnOutHandler(...) (0000ms, 0272ms total)
T2FCC 000:310 JLINK_OpenEx(...)
Firmware: J-Link ARM V8 compiled Jul 17 2014 12:31:18
Hardware: V8.00
S/N: 20140915
Feature(s): RDI,FlashDL,FlashBP,JFlash,GDBFULL  returns O.K. (0263ms, 0535ms total)
T2FCC 000:573 JLINK_SetErrorOutHandler(...) (0000ms, 0535ms total)
T2FCC 000:573 JLINK_ExecCommand("ProjectFile = "F:\Test\STM32\ESAM IRbuf  V1.3\Project\Pro\JLinkSettings.ini"", ...)  returns 0x00 (0001ms, 0536ms total)
T2FCC 000:580 JLINK_ExecCommand("Device = STM32F100C8", ...)Device "STM32F100C8" selected (64 KB flash, 8 KB RAM).  returns 0x00 (0002ms, 0538ms total)
T2FCC 000:582 JLINK_ExecCommand("DisableConnectionTimeout", ...)  returns 0x01 (0000ms, 0538ms total)
T2FCC 000:582 JLINK_GetHardwareVersion()  returns 0x13880 (0000ms, 0538ms total)
T2FCC 000:582 JLINK_GetDLLVersion()  returns 49005 (0000ms, 0538ms total)
T2FCC 000:582 JLINK_GetFirmwareString(...) (0000ms, 0538ms total)
T2FCC 000:586 JLINK_GetDLLVersion()  returns 49005 (0000ms, 0538ms total)
T2FCC 000:586 JLINK_GetCompileDateTime() (0000ms, 0538ms total)
T2FCC 000:586 JLINK_GetFirmwareString(...) (0001ms, 0539ms total)
T2FCC 000:587 JLINK_GetHardwareVersion()  returns 0x13880 (0000ms, 0539ms total)
T2FCC 000:591 JLINK_TIF_Select(JLINKARM_TIF_SWD)  returns 0x00 (0001ms, 0540ms total)
T2FCC 000:592 JLINK_SetSpeed(2000) (0001ms, 0541ms total)
T2FCC 000:593 JLINK_GetId() >0x108 TIF>Found SWD-DP with ID 0x1BA01477 >0x0D TIF> >0x28 TIF> >0x0D TIF> >0x28 TIF> >0x0D TIF> >0x21 TIF> >0x0D TIF> >0x28 TIF> >0x0D TIF> >0x28 TIF> >0x0D TIF> >0x28 TIF> >0x0D TIF> >0x21 TIF> >0x0D TIF> >0x21 TIF> >0x0D TIF> >0x28 TIF> >0x0D TIF> >0x21 TIF> >0x0D TIF> >0x21 TIF> >0x108 TIF>Found SWD-DP with ID 0x1BA01477 >0x0D TIF> >0x21 TIF> >0x0D TIF> >0x28 TIF> >0x0D TIF> >0x28 TIF> >0x0D TIF> >0x21 TIF> >0x0D TIF> >0x28 TIF> >0x0D TIF> >0x21 TIF> >0x0D TIF> >0x21 TIF>
 >0x0D TIF> >0x21 TIF> >0x0D TIF> >0x21 TIF> >0x0D TIF> >0x28 TIF> >0x0D TIF> >0x28 TIF> >0x0D TIF> >0x21 TIF> >0x0D TIF> >0x28 TIF> >0x0D TIF> >0x28 TIF> >0x0D TIF> >0x28 TIF> >0x0D TIF> >0x21 TIF> >0x0D TIF> >0x21 TIF> >0x0D TIF> >0x28 TIF> >0x0D TIF> >0x21 TIF> >0x0D TIF> >0x21 TIF>Found Cortex-M3 r1p1, Little endian. -- CPU_WriteMem(4 bytes @ 0xE0002000) -- CPU_ReadMem(4 bytes @ 0xE000EDF0) -- CPU_ReadMem(4 bytes @ 0xE0002000)FPUnit: 6 code (BP) slots and 2 literal slots
 -- CPU_ReadMem(4 bytes @ 0xE000EDFC) -- CPU_ReadMem(4 bytes @ 0xE0001000) -- CPU_WriteMem(4 bytes @ 0xE0001000) -- CPU_ReadMem(4 bytes @ 0xE000ED88) -- CPU_WriteMem(4 bytes @ 0xE000ED88) -- CPU_ReadMem(4 bytes @ 0xE000ED88) -- CPU_WriteMem(4 bytes @ 0xE000ED88) -- CPU_ReadMem(4 bytes @ 0xE00FF010)TPIU fitted. -- CPU_ReadMem(4 bytes @ 0xE00FF014) -- CPU_ReadMem(4 bytes @ 0xE00FF018) >0x0D TIF> >0x21 TIF>  returns 0x1BA01477 (0059ms, 0600ms total)
T2FCC 000:652 JLINK_GetDeviceFamily()  returns 3 (0000ms, 0600ms total)
T2FCC 000:653 JLINK_ReadMem (0xE00FFFF0, 0x0010 Bytes, ...) -- CPU is running -- CPU_ReadMem(16 bytes @ 0xE00FFFF0) - Data: 0D 00 00 00 10 00 00 00 05 00 00 00 B1 00 00 00  returns 0x00 (0001ms, 0601ms total)
T2FCC 000:654 JLINK_ReadMem (0xE00FFFD0, 0x0020 Bytes, ...) -- CPU is running -- CPU_ReadMem(32 bytes @ 0xE00FFFD0) - Data: 00 00 00 00 00 00 00 00 00 00 00 00 00 00 00 00 ...  returns 0x00 (0001ms, 0602ms total)
T2FCC 000:655 JLINK_ReadMem (0xE00FF000, 0x0018 Bytes, ...) -- CPU is running -- CPU_ReadMem(24 bytes @ 0xE00FF000) - Data: 03 F0 F0 FF 03 20 F0 FF 03 30 F0 FF 03 10 F0 FF ...  returns 0x00 (0001ms, 0603ms total)
T2FCC 000:656 JLINK_ReadMemU32(0xE000ED00, 0x0001 Items, ...) -- CPU is running -- CPU_ReadMem(4 bytes @ 0xE000ED00) - Data: 31 C2 1F 41  returns 0x01 (0001ms, 0604ms total)
T2FCC 000:657 JLINK_SetResetType(JLINKARM_RESET_TYPE_NORMAL)  returns JLINKARM_RESET_TYPE_NORMAL (0000ms, 0604ms total)
T2FCC 000:657 JLINK_Reset() -- CPU is running -- CPU_WriteMem(4 bytes @ 0xE000EDF0) -- CPU is running -- CPU_WriteMem(4 bytes @ 0xE000EDFC) >0x35 TIF> -- CPU is running -- CPU_WriteMem(4 bytes @ 0xE000ED0C) -- CPU is running -- CPU_ReadMem(4 bytes @ 0xE000EDF0) -- CPU is running -- CPU_ReadMem(4 bytes @ 0xE000EDF0) -- CPU is running -- CPU_WriteMem(4 bytes @ 0xE000EDF0) -- CPU is running -- CPU_WriteMem(4 bytes @ 0xE000EDFC) -- CPU is running -- CPU_ReadMem(4 bytes @ 0xE000EDF0)
 -- CPU_WriteMem(4 bytes @ 0xE0002000) -- CPU_ReadMem(4 bytes @ 0xE000EDFC) -- CPU_ReadMem(4 bytes @ 0xE0001000) (0022ms, 0626ms total)
T2FCC 000:679 JLINK_Halt()  returns 0x00 (0000ms, 0626ms total)
T2FCC 000:679 JLINK_IsHalted()  returns TRUE (0001ms, 0627ms total)
T2FCC 000:680 JLINK_ReadMemU32(0xE000EDF0, 0x0001 Items, ...) -- CPU_ReadMem(4 bytes @ 0xE000EDF0) - Data: 03 00 03 00  returns 0x01 (0000ms, 0626ms total)
T2FCC 000:680 JLINK_WriteU32(0xE000EDF0, 0xA05F0003) -- CPU_WriteMem(4 bytes @ 0xE000EDF0)  returns 0x00 (0001ms, 0627ms total)
T2FCC 000:681 JLINK_WriteU32(0xE000EDFC, 0x01000000) -- CPU_WriteMem(4 bytes @ 0xE000EDFC)  returns 0x00 (0001ms, 0628ms total)
T2FCC 000:686 JLINK_GetHWStatus(...)  returns 0x00 (0001ms, 0629ms total)
T2FCC 000:690 JLINK_GetNumBPUnits(Type = 0xFFFFFF00)  returns 0x06 (0000ms, 0629ms total)
T2FCC 000:690 JLINK_GetNumBPUnits(Type = 0xF0)  returns 0x2000 (0000ms, 0629ms total)
T2FCC 000:690 JLINK_GetNumWPUnits()  returns 0x04 (0000ms, 0629ms total)
T2FCC 000:693 JLINK_GetSpeed()  returns 0x7D0 (0000ms, 0629ms total)
T2FCC 000:695 JLINK_ReadMemU32(0xE000E004, 0x0001 Items, ...) -- CPU_ReadMem(4 bytes @ 0xE000E004) - Data: 01 00 00 00  returns 0x01 (0001ms, 0630ms total)
T2FCC 000:696 JLINK_ReadMemU32(0xE000E004, 0x0001 Items, ...) -- CPU_ReadMem(4 bytes @ 0xE000E004) - Data: 01 00 00 00  returns 0x01 (0001ms, 0631ms total)
T2FCC 000:697 JLINK_WriteMem(0xE0001000, 0x001C Bytes, ...) - Data: 01 00 00 00 00 00 00 00 00 00 00 00 00 00 00 00 ... -- CPU_WriteMem(28 bytes @ 0xE0001000)  returns 0x1C (0001ms, 0632ms total)
T2FCC 000:698 JLINK_ReadMem (0xE0001000, 0x001C Bytes, ...) -- CPU_ReadMem(28 bytes @ 0xE0001000) - Data: 01 00 00 40 00 00 00 00 00 00 00 00 00 00 00 00 ...  returns 0x00 (0001ms, 0633ms total)
T2FCC 000:699 JLINK_Halt()  returns 0x00 (0000ms, 0633ms total)
T2FCC 000:699 JLINK_IsHalted()  returns TRUE (0000ms, 0633ms total)
T2FCC 000:704 JLINK_WriteMem(0x20000000, 0x0164 Bytes, ...) - Data: 00 BE 0A E0 0D 78 2D 06 68 40 08 24 40 00 00 D3 ... -- CPU_WriteMem(356 bytes @ 0x20000000)  returns 0x164 (0004ms, 0637ms total)
T2FCC 000:709 JLINK_WriteReg(R0, 0x08000000)  returns 0x00 (0000ms, 0637ms total)
T2FCC 000:709 JLINK_WriteReg(R1, 0x007A1200)  returns 0x00 (0000ms, 0637ms total)
T2FCC 000:709 JLINK_WriteReg(R2, 0x00000001)  returns 0x00 (0000ms, 0637ms total)
T2FCC 000:709 JLINK_WriteReg(R3, 0x00000000)  returns 0x00 (0000ms, 0637ms total)
T2FCC 000:709 JLINK_WriteReg(R4, 0x00000000)  returns 0x00 (0000ms, 0637ms total)
T2FCC 000:709 JLINK_WriteReg(R5, 0x00000000)  returns 0x00 (0000ms, 0637ms total)
T2FCC 000:709 JLINK_WriteReg(R6, 0x00000000)  returns 0x00 (0000ms, 0637ms total)
T2FCC 000:709 JLINK_WriteReg(R7, 0x00000000)  returns 0x00 (0000ms, 0637ms total)
T2FCC 000:709 JLINK_WriteReg(R8, 0x00000000)  returns 0x00 (0000ms, 0637ms total)
T2FCC 000:709 JLINK_WriteReg(R9, 0x20000160)  returns 0x00 (0000ms, 0637ms total)
T2FCC 000:709 JLINK_WriteReg(R10, 0x00000000)  returns 0x00 (0000ms, 0637ms total)
T2FCC 000:709 JLINK_WriteReg(R11, 0x00000000)  returns 0x00 (0000ms, 0637ms total)
T2FCC 000:709 JLINK_WriteReg(R12, 0x00000000)  returns 0x00 (0000ms, 0637ms total)
T2FCC 000:709 JLINK_WriteReg(R13 (SP), 0x20000800)  returns 0x00 (0000ms, 0637ms total)
T2FCC 000:709 JLINK_WriteReg(R14, 0x20000001)  returns 0x00 (0000ms, 0637ms total)
T2FCC 000:709 JLINK_WriteReg(R15 (PC), 0x20000038)  returns 0x00 (0000ms, 0637ms total)
T2FCC 000:709 JLINK_WriteReg(XPSR, 0x01000000)  returns 0x00 (0000ms, 0637ms total)
T2FCC 000:709 JLINK_WriteReg(MSP, 0x20000800)  returns 0x00 (0000ms, 0637ms total)
T2FCC 000:709 JLINK_WriteReg(PSP, 0x20000800)  returns 0x00 (0000ms, 0637ms total)
T2FCC 000:709 JLINK_WriteReg(CFBP, 0x00000000)  returns 0x00 (0000ms, 0637ms total)
T2FCC 000:709 JLINK_SetBPEx(Addr = 0x20000000, Type = 0xFFFFFFF2) -- CPU_ReadMem(2 bytes @ 0x20000000)  returns 0x00000001 (0001ms, 0638ms total)
T2FCC 000:710 JLINK_Go() -- CPU_WriteMem(2 bytes @ 0x20000000) -- CPU_WriteMem(4 bytes @ 0xE0002008) -- CPU_WriteMem(4 bytes @ 0xE000200C) -- CPU_WriteMem(4 bytes @ 0xE0002010) -- CPU_WriteMem(4 bytes @ 0xE0002014) -- CPU_WriteMem(4 bytes @ 0xE0002018) -- CPU_WriteMem(4 bytes @ 0xE000201C) -- CPU_WriteMem(4 bytes @ 0xE0001004) (0008ms, 0646ms total)
T2FCC 000:719 JLINK_IsHalted() -- CPU_ReadMem(2 bytes @ 0x20000000)  returns TRUE (0004ms, 0651ms total)
T2FCC 000:723 JLINK_ReadReg(R15 (PC))  returns 0x20000000 (0000ms, 0647ms total)
T2FCC 000:723 JLINK_ClrBPEx(BPHandle = 0x00000001)  returns 0x00 (0000ms, 0647ms total)
T2FCC 000:723 JLINK_ReadReg(R0)  returns 0x00000000 (0000ms, 0647ms total)
T2FCC 000:724 JLINK_WriteReg(R0, 0x08000000)  returns 0x00 (0000ms, 0647ms total)
T2FCC 000:724 JLINK_WriteReg(R1, 0x007A1200)  returns 0x00 (0000ms, 0647ms total)
T2FCC 000:724 JLINK_WriteReg(R2, 0x00000001)  returns 0x00 (0000ms, 0647ms total)
T2FCC 000:724 JLINK_WriteReg(R3, 0x00000000)  returns 0x00 (0000ms, 0647ms total)
T2FCC 000:724 JLINK_WriteReg(R4, 0x00000000)  returns 0x00 (0000ms, 0647ms total)
T2FCC 000:724 JLINK_WriteReg(R5, 0x00000000)  returns 0x00 (0000ms, 0647ms total)
T2FCC 000:724 JLINK_WriteReg(R6, 0x00000000)  returns 0x00 (0000ms, 0647ms total)
T2FCC 000:724 JLINK_WriteReg(R7, 0x00000000)  returns 0x00 (0000ms, 0647ms total)
T2FCC 000:724 JLINK_WriteReg(R8, 0x00000000)  returns 0x00 (0000ms, 0647ms total)
T2FCC 000:724 JLINK_WriteReg(R9, 0x20000160)  returns 0x00 (0000ms, 0647ms total)
T2FCC 000:724 JLINK_WriteReg(R10, 0x00000000)  returns 0x00 (0000ms, 0647ms total)
T2FCC 000:724 JLINK_WriteReg(R11, 0x00000000)  returns 0x00 (0000ms, 0647ms total)
T2FCC 000:724 JLINK_WriteReg(R12, 0x00000000)  returns 0x00 (0000ms, 0647ms total)
T2FCC 000:724 JLINK_WriteReg(R13 (SP), 0x20000800)  returns 0x00 (0000ms, 0647ms total)
T2FCC 000:724 JLINK_WriteReg(R14, 0x20000001)  returns 0x00 (0000ms, 0647ms total)
T2FCC 000:724 JLINK_WriteReg(R15 (PC), 0x2000007C)  returns 0x00 (0000ms, 0647ms total)
T2FCC 000:724 JLINK_WriteReg(XPSR, 0x01000000)  returns 0x00 (0000ms, 0647ms total)
T2FCC 000:724 JLINK_WriteReg(MSP, 0x20000800)  returns 0x00 (0000ms, 0647ms total)
T2FCC 000:724 JLINK_WriteReg(PSP, 0x20000800)  returns 0x00 (0000ms, 0647ms total)
T2FCC 000:724 JLINK_WriteReg(CFBP, 0x00000000)  returns 0x00 (0000ms, 0647ms total)
T2FCC 000:724 JLINK_SetBPEx(Addr = 0x20000000, Type = 0xFFFFFFF2)  returns 0x00000002 (0000ms, 0647ms total)
T2FCC 000:725 JLINK_Go() (0002ms, 0650ms total)
T2FCC 000:727 JLINK_IsHalted()  returns FALSE (0001ms, 0651ms total)
T2FCC 000:800 JLINK_IsHalted() -- CPU_ReadMem(2 bytes @ 0x20000000)  returns TRUE (0004ms, 0654ms total)
T2FCC 000:804 JLINK_ReadReg(R15 (PC))  returns 0x20000000 (0000ms, 0650ms total)
T2FCC 000:804 JLINK_ClrBPEx(BPHandle = 0x00000002)  returns 0x00 (0000ms, 0650ms total)
T2FCC 000:804 JLINK_ReadReg(R0)  returns 0x00000000 (0001ms, 0651ms total)
T2FCC 000:855 JLINK_WriteReg(R0, 0x00000001)  returns 0x00 (0001ms, 0652ms total)
T2FCC 000:856 JLINK_WriteReg(R1, 0x007A1200)  returns 0x00 (0000ms, 0652ms total)
T2FCC 000:856 JLINK_WriteReg(R2, 0x00000001)  returns 0x00 (0000ms, 0652ms total)
T2FCC 000:856 JLINK_WriteReg(R3, 0x00000000)  returns 0x00 (0000ms, 0652ms total)
T2FCC 000:856 JLINK_WriteReg(R4, 0x00000000)  returns 0x00 (0000ms, 0652ms total)
T2FCC 000:856 JLINK_WriteReg(R5, 0x00000000)  returns 0x00 (0000ms, 0652ms total)
T2FCC 000:856 JLINK_WriteReg(R6, 0x00000000)  returns 0x00 (0000ms, 0652ms total)
T2FCC 000:856 JLINK_WriteReg(R7, 0x00000000)  returns 0x00 (0000ms, 0652ms total)
T2FCC 000:856 JLINK_WriteReg(R8, 0x00000000)  returns 0x00 (0000ms, 0652ms total)
T2FCC 000:856 JLINK_WriteReg(R9, 0x20000160)  returns 0x00 (0000ms, 0652ms total)
T2FCC 000:856 JLINK_WriteReg(R10, 0x00000000)  returns 0x00 (0000ms, 0652ms total)
T2FCC 000:856 JLINK_WriteReg(R11, 0x00000000)  returns 0x00 (0000ms, 0652ms total)
T2FCC 000:856 JLINK_WriteReg(R12, 0x00000000)  returns 0x00 (0000ms, 0652ms total)
T2FCC 000:856 JLINK_WriteReg(R13 (SP), 0x20000800)  returns 0x00 (0000ms, 0652ms total)
T2FCC 000:856 JLINK_WriteReg(R14, 0x20000001)  returns 0x00 (0000ms, 0652ms total)
T2FCC 000:856 JLINK_WriteReg(R15 (PC), 0x2000006A)  returns 0x00 (0000ms, 0652ms total)
T2FCC 000:856 JLINK_WriteReg(XPSR, 0x01000000)  returns 0x00 (0000ms, 0652ms total)
T2FCC 000:856 JLINK_WriteReg(MSP, 0x20000800)  returns 0x00 (0001ms, 0653ms total)
T2FCC 000:857 JLINK_WriteReg(PSP, 0x20000800)  returns 0x00 (0000ms, 0653ms total)
T2FCC 000:857 JLINK_WriteReg(CFBP, 0x00000000)  returns 0x00 (0000ms, 0653ms total)
T2FCC 000:857 JLINK_SetBPEx(Addr = 0x20000000, Type = 0xFFFFFFF2)  returns 0x00000003 (0000ms, 0653ms total)
T2FCC 000:857 JLINK_Go() (0002ms, 0655ms total)
T2FCC 000:859 JLINK_IsHalted() -- CPU_ReadMem(2 bytes @ 0x20000000)  returns TRUE (0005ms, 0660ms total)
T2FCC 000:864 JLINK_ReadReg(R15 (PC))  returns 0x20000000 (0000ms, 0655ms total)
T2FCC 000:864 JLINK_ClrBPEx(BPHandle = 0x00000003)  returns 0x00 (0000ms, 0655ms total)
T2FCC 000:864 JLINK_ReadReg(R0)  returns 0x00000000 (0000ms, 0655ms total)
T2FCC 000:869 JLINK_WriteMem(0x20000000, 0x0164 Bytes, ...) - Data: 00 BE 0A E0 0D 78 2D 06 68 40 08 24 40 00 00 D3 ... -- CPU_WriteMem(356 bytes @ 0x20000000)  returns 0x164 (0005ms, 0660ms total)
T2FCC 000:874 JLINK_WriteReg(R0, 0x08000000)  returns 0x00 (0000ms, 0660ms total)
T2FCC 000:874 JLINK_WriteReg(R1, 0x007A1200)  returns 0x00 (0000ms, 0660ms total)
T2FCC 000:874 JLINK_WriteReg(R2, 0x00000002)  returns 0x00 (0000ms, 0660ms total)
T2FCC 000:874 JLINK_WriteReg(R3, 0x00000000)  returns 0x00 (0000ms, 0660ms total)
T2FCC 000:874 JLINK_WriteReg(R4, 0x00000000)  returns 0x00 (0000ms, 0660ms total)
T2FCC 000:874 JLINK_WriteReg(R5, 0x00000000)  returns 0x00 (0000ms, 0660ms total)
T2FCC 000:874 JLINK_WriteReg(R6, 0x00000000)  returns 0x00 (0000ms, 0660ms total)
T2FCC 000:874 JLINK_WriteReg(R7, 0x00000000)  returns 0x00 (0000ms, 0660ms total)
T2FCC 000:874 JLINK_WriteReg(R8, 0x00000000)  returns 0x00 (0000ms, 0660ms total)
T2FCC 000:874 JLINK_WriteReg(R9, 0x20000160)  returns 0x00 (0000ms, 0660ms total)
T2FCC 000:874 JLINK_WriteReg(R10, 0x00000000)  returns 0x00 (0000ms, 0660ms total)
T2FCC 000:874 JLINK_WriteReg(R11, 0x00000000)  returns 0x00 (0000ms, 0660ms total)
T2FCC 000:874 JLINK_WriteReg(R12, 0x00000000)  returns 0x00 (0000ms, 0660ms total)
T2FCC 000:874 JLINK_WriteReg(R13 (SP), 0x20000800)  returns 0x00 (0000ms, 0660ms total)
T2FCC 000:874 JLINK_WriteReg(R14, 0x20000001)  returns 0x00 (0000ms, 0660ms total)
T2FCC 000:874 JLINK_WriteReg(R15 (PC), 0x20000038)  returns 0x00 (0000ms, 0660ms total)
T2FCC 000:874 JLINK_WriteReg(XPSR, 0x01000000)  returns 0x00 (0001ms, 0661ms total)
T2FCC 000:875 JLINK_WriteReg(MSP, 0x20000800)  returns 0x00 (0000ms, 0661ms total)
T2FCC 000:875 JLINK_WriteReg(PSP, 0x20000800)  returns 0x00 (0000ms, 0661ms total)
T2FCC 000:875 JLINK_WriteReg(CFBP, 0x00000000)  returns 0x00 (0000ms, 0661ms total)
T2FCC 000:875 JLINK_SetBPEx(Addr = 0x20000000, Type = 0xFFFFFFF2) -- CPU_ReadMem(2 bytes @ 0x20000000)  returns 0x00000004 (0001ms, 0662ms total)
T2FCC 000:876 JLINK_Go() -- CPU_WriteMem(2 bytes @ 0x20000000) (0003ms, 0665ms total)
T2FCC 000:879 JLINK_IsHalted() -- CPU_ReadMem(2 bytes @ 0x20000000)  returns TRUE (0005ms, 0670ms total)
T2FCC 000:884 JLINK_ReadReg(R15 (PC))  returns 0x20000000 (0000ms, 0665ms total)
T2FCC 000:884 JLINK_ClrBPEx(BPHandle = 0x00000004)  returns 0x00 (0000ms, 0665ms total)
T2FCC 000:884 JLINK_ReadReg(R0)  returns 0x00000000 (0000ms, 0665ms total)
T2FCC 000:884 JLINK_WriteMem(0x20000164, 0x0400 Bytes, ...) - Data: 70 0F 00 20 81 5A 00 08 F9 04 00 08 FB 04 00 08 ... -- CPU_WriteMem(1024 bytes @ 0x20000164)  returns 0x400 (0012ms, 0677ms total)
T2FCC 000:896 JLINK_WriteReg(R0, 0x08000000)  returns 0x00 (0000ms, 0677ms total)
T2FCC 000:896 JLINK_WriteReg(R1, 0x00000400)  returns 0x00 (0000ms, 0677ms total)
T2FCC 000:896 JLINK_WriteReg(R2, 0x20000164)  returns 0x00 (0000ms, 0677ms total)
T2FCC 000:896 JLINK_WriteReg(R3, 0x00000000)  returns 0x00 (0000ms, 0677ms total)
T2FCC 000:896 JLINK_WriteReg(R4, 0x00000000)  returns 0x00 (0000ms, 0677ms total)
T2FCC 000:896 JLINK_WriteReg(R5, 0x00000000)  returns 0x00 (0000ms, 0677ms total)
T2FCC 000:896 JLINK_WriteReg(R6, 0x00000000)  returns 0x00 (0000ms, 0677ms total)
T2FCC 000:896 JLINK_WriteReg(R7, 0x00000000)  returns 0x00 (0000ms, 0677ms total)
T2FCC 000:896 JLINK_WriteReg(R8, 0x00000000)  returns 0x00 (0000ms, 0677ms total)
T2FCC 000:896 JLINK_WriteReg(R9, 0x20000160)  returns 0x00 (0000ms, 0677ms total)
T2FCC 000:896 JLINK_WriteReg(R10, 0x00000000)  returns 0x00 (0000ms, 0677ms total)
T2FCC 000:896 JLINK_WriteReg(R11, 0x00000000)  returns 0x00 (0000ms, 0677ms total)
T2FCC 000:896 JLINK_WriteReg(R12, 0x00000000)  returns 0x00 (0000ms, 0677ms total)
T2FCC 000:896 JLINK_WriteReg(R13 (SP), 0x20000800)  returns 0x00 (0001ms, 0678ms total)
T2FCC 000:897 JLINK_WriteReg(R14, 0x20000001)  returns 0x00 (0000ms, 0678ms total)
T2FCC 000:897 JLINK_WriteReg(R15 (PC), 0x200000F4)  returns 0x00 (0000ms, 0678ms total)
T2FCC 000:897 JLINK_WriteReg(XPSR, 0x01000000)  returns 0x00 (0000ms, 0678ms total)
T2FCC 000:897 JLINK_WriteReg(MSP, 0x20000800)  returns 0x00 (0000ms, 0678ms total)
T2FCC 000:897 JLINK_WriteReg(PSP, 0x20000800)  returns 0x00 (0000ms, 0678ms total)
T2FCC 000:897 JLINK_WriteReg(CFBP, 0x00000000)  returns 0x00 (0000ms, 0678ms total)
T2FCC 000:897 JLINK_SetBPEx(Addr = 0x20000000, Type = 0xFFFFFFF2)  returns 0x00000005 (0000ms, 0678ms total)
T2FCC 000:897 JLINK_Go() (0002ms, 0680ms total)
T2FCC 000:899 JLINK_IsHalted()  returns FALSE (0001ms, 0681ms total)
T2FCC 000:984 JLINK_IsHalted() -- CPU_ReadMem(2 bytes @ 0x20000000)  returns TRUE (0004ms, 0684ms total)
T2FCC 000:989 JLINK_ReadReg(R15 (PC))  returns 0x20000000 (0000ms, 0680ms total)
T2FCC 000:989 JLINK_ClrBPEx(BPHandle = 0x00000005)  returns 0x00 (0000ms, 0680ms total)
T2FCC 000:989 JLINK_ReadReg(R0)  returns 0x00000000 (0000ms, 0680ms total)
T2FCC 000:989 JLINK_WriteMem(0x20000164, 0x0400 Bytes, ...) - Data: C0 0F 04 D3 00 20 29 49 08 60 01 F0 A8 FA 40 21 ... -- CPU_WriteMem(1024 bytes @ 0x20000164)  returns 0x400 (0012ms, 0692ms total)
T2FCC 001:001 JLINK_WriteReg(R0, 0x08000400)  returns 0x00 (0000ms, 0692ms total)
T2FCC 001:001 JLINK_WriteReg(R1, 0x00000400)  returns 0x00 (0000ms, 0692ms total)
T2FCC 001:001 JLINK_WriteReg(R2, 0x20000164)  returns 0x00 (0000ms, 0692ms total)
T2FCC 001:002 JLINK_WriteReg(R3, 0x00000000)  returns 0x00 (0000ms, 0693ms total)
T2FCC 001:002 JLINK_WriteReg(R4, 0x00000000)  returns 0x00 (0000ms, 0693ms total)
T2FCC 001:002 JLINK_WriteReg(R5, 0x00000000)  returns 0x00 (0000ms, 0693ms total)
T2FCC 001:002 JLINK_WriteReg(R6, 0x00000000)  returns 0x00 (0000ms, 0693ms total)
T2FCC 001:002 JLINK_WriteReg(R7, 0x00000000)  returns 0x00 (0000ms, 0693ms total)
T2FCC 001:002 JLINK_WriteReg(R8, 0x00000000)  returns 0x00 (0000ms, 0693ms total)
T2FCC 001:002 JLINK_WriteReg(R9, 0x20000160)  returns 0x00 (0000ms, 0693ms total)
T2FCC 001:002 JLINK_WriteReg(R10, 0x00000000)  returns 0x00 (0000ms, 0693ms total)
T2FCC 001:002 JLINK_WriteReg(R11, 0x00000000)  returns 0x00 (0000ms, 0693ms total)
T2FCC 001:002 JLINK_WriteReg(R12, 0x00000000)  returns 0x00 (0000ms, 0693ms total)
T2FCC 001:002 JLINK_WriteReg(R13 (SP), 0x20000800)  returns 0x00 (0000ms, 0693ms total)
T2FCC 001:002 JLINK_WriteReg(R14, 0x20000001)  returns 0x00 (0000ms, 0693ms total)
T2FCC 001:002 JLINK_WriteReg(R15 (PC), 0x200000F4)  returns 0x00 (0000ms, 0693ms total)
T2FCC 001:002 JLINK_WriteReg(XPSR, 0x01000000)  returns 0x00 (0000ms, 0693ms total)
T2FCC 001:002 JLINK_WriteReg(MSP, 0x20000800)  returns 0x00 (0000ms, 0693ms total)
T2FCC 001:002 JLINK_WriteReg(PSP, 0x20000800)  returns 0x00 (0000ms, 0693ms total)
T2FCC 001:002 JLINK_WriteReg(CFBP, 0x00000000)  returns 0x00 (0000ms, 0693ms total)
T2FCC 001:002 JLINK_SetBPEx(Addr = 0x20000000, Type = 0xFFFFFFF2)  returns 0x00000006 (0000ms, 0693ms total)
T2FCC 001:002 JLINK_Go() (0002ms, 0695ms total)
T2FCC 001:005 JLINK_IsHalted()  returns FALSE (0000ms, 0696ms total)
T2FCC 001:084 JLINK_IsHalted() -- CPU_ReadMem(2 bytes @ 0x20000000)  returns TRUE (0004ms, 0700ms total)
T2FCC 001:088 JLINK_ReadReg(R15 (PC))  returns 0x20000000 (0000ms, 0696ms total)
T2FCC 001:088 JLINK_ClrBPEx(BPHandle = 0x00000006)  returns 0x00 (0000ms, 0696ms total)
T2FCC 001:088 JLINK_ReadReg(R0)  returns 0x00000000 (0000ms, 0696ms total)
T2FCC 001:089 JLINK_WriteMem(0x20000164, 0x0400 Bytes, ...) - Data: 00 88 5B 49 09 88 88 42 05 DB 00 22 40 F2 27 71 ... -- CPU_WriteMem(1024 bytes @ 0x20000164)  returns 0x400 (0012ms, 0708ms total)
T2FCC 001:101 JLINK_WriteReg(R0, 0x08000800)  returns 0x00 (0000ms, 0708ms total)
T2FCC 001:101 JLINK_WriteReg(R1, 0x00000400)  returns 0x00 (0000ms, 0708ms total)
T2FCC 001:101 JLINK_WriteReg(R2, 0x20000164)  returns 0x00 (0000ms, 0708ms total)
T2FCC 001:101 JLINK_WriteReg(R3, 0x00000000)  returns 0x00 (0000ms, 0708ms total)
T2FCC 001:101 JLINK_WriteReg(R4, 0x00000000)  returns 0x00 (0000ms, 0708ms total)
T2FCC 001:101 JLINK_WriteReg(R5, 0x00000000)  returns 0x00 (0000ms, 0708ms total)
T2FCC 001:101 JLINK_WriteReg(R6, 0x00000000)  returns 0x00 (0000ms, 0708ms total)
T2FCC 001:101 JLINK_WriteReg(R7, 0x00000000)  returns 0x00 (0000ms, 0708ms total)
T2FCC 001:101 JLINK_WriteReg(R8, 0x00000000)  returns 0x00 (0000ms, 0708ms total)
T2FCC 001:101 JLINK_WriteReg(R9, 0x20000160)  returns 0x00 (0000ms, 0708ms total)
T2FCC 001:101 JLINK_WriteReg(R10, 0x00000000)  returns 0x00 (0000ms, 0708ms total)
T2FCC 001:101 JLINK_WriteReg(R11, 0x00000000)  returns 0x00 (0000ms, 0708ms total)
T2FCC 001:101 JLINK_WriteReg(R12, 0x00000000)  returns 0x00 (0000ms, 0708ms total)
T2FCC 001:101 JLINK_WriteReg(R13 (SP), 0x20000800)  returns 0x00 (0000ms, 0708ms total)
T2FCC 001:101 JLINK_WriteReg(R14, 0x20000001)  returns 0x00 (0000ms, 0708ms total)
T2FCC 001:101 JLINK_WriteReg(R15 (PC), 0x200000F4)  returns 0x00 (0000ms, 0708ms total)
T2FCC 001:101 JLINK_WriteReg(XPSR, 0x01000000)  returns 0x00 (0000ms, 0708ms total)
T2FCC 001:101 JLINK_WriteReg(MSP, 0x20000800)  returns 0x00 (0000ms, 0708ms total)
T2FCC 001:101 JLINK_WriteReg(PSP, 0x20000800)  returns 0x00 (0000ms, 0708ms total)
T2FCC 001:101 JLINK_WriteReg(CFBP, 0x00000000)  returns 0x00 (0000ms, 0708ms total)
T2FCC 001:101 JLINK_SetBPEx(Addr = 0x20000000, Type = 0xFFFFFFF2)  returns 0x00000007 (0000ms, 0708ms total)
T2FCC 001:101 JLINK_Go() (0002ms, 0710ms total)
T2FCC 001:104 JLINK_IsHalted()  returns FALSE (0000ms, 0711ms total)
T2FCC 001:183 JLINK_IsHalted() -- CPU_ReadMem(2 bytes @ 0x20000000)  returns TRUE (0004ms, 0715ms total)
T2FCC 001:187 JLINK_ReadReg(R15 (PC))  returns 0x20000000 (0000ms, 0711ms total)
T2FCC 001:187 JLINK_ClrBPEx(BPHandle = 0x00000007)  returns 0x00 (0000ms, 0711ms total)
T2FCC 001:187 JLINK_ReadReg(R0)  returns 0x00000000 (0001ms, 0712ms total)
T2FCC 001:188 JLINK_WriteMem(0x20000164, 0x0400 Bytes, ...) - Data: B4 F8 02 02 25 54 B4 F8 02 12 48 1C C1 17 00 EB ... -- CPU_WriteMem(1024 bytes @ 0x20000164)  returns 0x400 (0012ms, 0724ms total)
T2FCC 001:200 JLINK_WriteReg(R0, 0x08000C00)  returns 0x00 (0000ms, 0724ms total)
T2FCC 001:200 JLINK_WriteReg(R1, 0x00000400)  returns 0x00 (0000ms, 0724ms total)
T2FCC 001:200 JLINK_WriteReg(R2, 0x20000164)  returns 0x00 (0000ms, 0724ms total)
T2FCC 001:200 JLINK_WriteReg(R3, 0x00000000)  returns 0x00 (0000ms, 0724ms total)
T2FCC 001:200 JLINK_WriteReg(R4, 0x00000000)  returns 0x00 (0000ms, 0724ms total)
T2FCC 001:200 JLINK_WriteReg(R5, 0x00000000)  returns 0x00 (0000ms, 0724ms total)
T2FCC 001:200 JLINK_WriteReg(R6, 0x00000000)  returns 0x00 (0000ms, 0724ms total)
T2FCC 001:200 JLINK_WriteReg(R7, 0x00000000)  returns 0x00 (0000ms, 0724ms total)
T2FCC 001:200 JLINK_WriteReg(R8, 0x00000000)  returns 0x00 (0000ms, 0724ms total)
T2FCC 001:200 JLINK_WriteReg(R9, 0x20000160)  returns 0x00 (0000ms, 0724ms total)
T2FCC 001:200 JLINK_WriteReg(R10, 0x00000000)  returns 0x00 (0000ms, 0724ms total)
T2FCC 001:200 JLINK_WriteReg(R11, 0x00000000)  returns 0x00 (0000ms, 0724ms total)
T2FCC 001:200 JLINK_WriteReg(R12, 0x00000000)  returns 0x00 (0000ms, 0724ms total)
T2FCC 001:200 JLINK_WriteReg(R13 (SP), 0x20000800)  returns 0x00 (0000ms, 0724ms total)
T2FCC 001:200 JLINK_WriteReg(R14, 0x20000001)  returns 0x00 (0000ms, 0724ms total)
T2FCC 001:200 JLINK_WriteReg(R15 (PC), 0x200000F4)  returns 0x00 (0000ms, 0724ms total)
T2FCC 001:200 JLINK_WriteReg(XPSR, 0x01000000)  returns 0x00 (0000ms, 0724ms total)
T2FCC 001:200 JLINK_WriteReg(MSP, 0x20000800)  returns 0x00 (0000ms, 0724ms total)
T2FCC 001:200 JLINK_WriteReg(PSP, 0x20000800)  returns 0x00 (0000ms, 0724ms total)
T2FCC 001:200 JLINK_WriteReg(CFBP, 0x00000000)  returns 0x00 (0000ms, 0724ms total)
T2FCC 001:200 JLINK_SetBPEx(Addr = 0x20000000, Type = 0xFFFFFFF2)  returns 0x00000008 (0000ms, 0724ms total)
T2FCC 001:200 JLINK_Go() (0003ms, 0727ms total)
T2FCC 001:203 JLINK_IsHalted()  returns FALSE (0000ms, 0727ms total)
T2FCC 001:283 JLINK_IsHalted() -- CPU_ReadMem(2 bytes @ 0x20000000)  returns TRUE (0004ms, 0731ms total)
T2FCC 001:287 JLINK_ReadReg(R15 (PC))  returns 0x20000000 (0001ms, 0728ms total)
T2FCC 001:288 JLINK_ClrBPEx(BPHandle = 0x00000008)  returns 0x00 (0000ms, 0728ms total)
T2FCC 001:288 JLINK_ReadReg(R0)  returns 0x00000000 (0000ms, 0728ms total)
T2FCC 001:288 JLINK_WriteMem(0x20000164, 0x0400 Bytes, ...) - Data: 03 F0 76 F8 04 20 AD F8 00 00 1C 20 8D F8 03 00 ... -- CPU_WriteMem(1024 bytes @ 0x20000164)  returns 0x400 (0012ms, 0740ms total)
T2FCC 001:300 JLINK_WriteReg(R0, 0x08001000)  returns 0x00 (0000ms, 0740ms total)
T2FCC 001:300 JLINK_WriteReg(R1, 0x00000400)  returns 0x00 (0000ms, 0740ms total)
T2FCC 001:300 JLINK_WriteReg(R2, 0x20000164)  returns 0x00 (0000ms, 0740ms total)
T2FCC 001:300 JLINK_WriteReg(R3, 0x00000000)  returns 0x00 (0000ms, 0740ms total)
T2FCC 001:300 JLINK_WriteReg(R4, 0x00000000)  returns 0x00 (0000ms, 0740ms total)
T2FCC 001:300 JLINK_WriteReg(R5, 0x00000000)  returns 0x00 (0000ms, 0740ms total)
T2FCC 001:300 JLINK_WriteReg(R6, 0x00000000)  returns 0x00 (0000ms, 0740ms total)
T2FCC 001:300 JLINK_WriteReg(R7, 0x00000000)  returns 0x00 (0000ms, 0740ms total)
T2FCC 001:300 JLINK_WriteReg(R8, 0x00000000)  returns 0x00 (0000ms, 0740ms total)
T2FCC 001:300 JLINK_WriteReg(R9, 0x20000160)  returns 0x00 (0000ms, 0740ms total)
T2FCC 001:300 JLINK_WriteReg(R10, 0x00000000)  returns 0x00 (0000ms, 0740ms total)
T2FCC 001:300 JLINK_WriteReg(R11, 0x00000000)  returns 0x00 (0000ms, 0740ms total)
T2FCC 001:300 JLINK_WriteReg(R12, 0x00000000)  returns 0x00 (0000ms, 0740ms total)
T2FCC 001:300 JLINK_WriteReg(R13 (SP), 0x20000800)  returns 0x00 (0000ms, 0740ms total)
T2FCC 001:300 JLINK_WriteReg(R14, 0x20000001)  returns 0x00 (0000ms, 0740ms total)
T2FCC 001:300 JLINK_WriteReg(R15 (PC), 0x200000F4)  returns 0x00 (0000ms, 0740ms total)
T2FCC 001:300 JLINK_WriteReg(XPSR, 0x01000000)  returns 0x00 (0000ms, 0740ms total)
T2FCC 001:300 JLINK_WriteReg(MSP, 0x20000800)  returns 0x00 (0000ms, 0740ms total)
T2FCC 001:300 JLINK_WriteReg(PSP, 0x20000800)  returns 0x00 (0000ms, 0740ms total)
T2FCC 001:300 JLINK_WriteReg(CFBP, 0x00000000)  returns 0x00 (0000ms, 0740ms total)
T2FCC 001:300 JLINK_SetBPEx(Addr = 0x20000000, Type = 0xFFFFFFF2)  returns 0x00000009 (0000ms, 0740ms total)
T2FCC 001:300 JLINK_Go() (0002ms, 0742ms total)
T2FCC 001:302 JLINK_IsHalted()  returns FALSE (0001ms, 0743ms total)
T2FCC 001:388 JLINK_IsHalted() -- CPU_ReadMem(2 bytes @ 0x20000000)  returns TRUE (0004ms, 0746ms total)
T2FCC 001:392 JLINK_ReadReg(R15 (PC))  returns 0x20000000 (0000ms, 0742ms total)
T2FCC 001:392 JLINK_ClrBPEx(BPHandle = 0x00000009)  returns 0x00 (0000ms, 0742ms total)
T2FCC 001:392 JLINK_ReadReg(R0)  returns 0x00000000 (0001ms, 0743ms total)
T2FCC 001:394 JLINK_WriteMem(0x20000164, 0x0400 Bytes, ...) - Data: 00 BF D0 48 00 88 D0 49 09 88 88 42 F9 DB 70 BD ... -- CPU_WriteMem(1024 bytes @ 0x20000164)  returns 0x400 (0011ms, 0754ms total)
T2FCC 001:405 JLINK_WriteReg(R0, 0x08001400)  returns 0x00 (0000ms, 0754ms total)
T2FCC 001:405 JLINK_WriteReg(R1, 0x00000400)  returns 0x00 (0000ms, 0754ms total)
T2FCC 001:405 JLINK_WriteReg(R2, 0x20000164)  returns 0x00 (0000ms, 0754ms total)
T2FCC 001:405 JLINK_WriteReg(R3, 0x00000000)  returns 0x00 (0000ms, 0754ms total)
T2FCC 001:405 JLINK_WriteReg(R4, 0x00000000)  returns 0x00 (0001ms, 0755ms total)
T2FCC 001:406 JLINK_WriteReg(R5, 0x00000000)  returns 0x00 (0000ms, 0755ms total)
T2FCC 001:406 JLINK_WriteReg(R6, 0x00000000)  returns 0x00 (0000ms, 0755ms total)
T2FCC 001:406 JLINK_WriteReg(R7, 0x00000000)  returns 0x00 (0000ms, 0755ms total)
T2FCC 001:406 JLINK_WriteReg(R8, 0x00000000)  returns 0x00 (0000ms, 0755ms total)
T2FCC 001:406 JLINK_WriteReg(R9, 0x20000160)  returns 0x00 (0000ms, 0755ms total)
T2FCC 001:406 JLINK_WriteReg(R10, 0x00000000)  returns 0x00 (0000ms, 0755ms total)
T2FCC 001:406 JLINK_WriteReg(R11, 0x00000000)  returns 0x00 (0000ms, 0755ms total)
T2FCC 001:406 JLINK_WriteReg(R12, 0x00000000)  returns 0x00 (0000ms, 0755ms total)
T2FCC 001:406 JLINK_WriteReg(R13 (SP), 0x20000800)  returns 0x00 (0000ms, 0755ms total)
T2FCC 001:406 JLINK_WriteReg(R14, 0x20000001)  returns 0x00 (0000ms, 0755ms total)
T2FCC 001:406 JLINK_WriteReg(R15 (PC), 0x200000F4)  returns 0x00 (0000ms, 0755ms total)
T2FCC 001:406 JLINK_WriteReg(XPSR, 0x01000000)  returns 0x00 (0000ms, 0755ms total)
T2FCC 001:406 JLINK_WriteReg(MSP, 0x20000800)  returns 0x00 (0000ms, 0755ms total)
T2FCC 001:406 JLINK_WriteReg(PSP, 0x20000800)  returns 0x00 (0000ms, 0755ms total)
T2FCC 001:406 JLINK_WriteReg(CFBP, 0x00000000)  returns 0x00 (0000ms, 0755ms total)
T2FCC 001:406 JLINK_SetBPEx(Addr = 0x20000000, Type = 0xFFFFFFF2)  returns 0x0000000A (0000ms, 0755ms total)
T2FCC 001:406 JLINK_Go() (0002ms, 0757ms total)
T2FCC 001:408 JLINK_IsHalted()  returns FALSE (0001ms, 0758ms total)
T2FCC 001:436 JLINK_IsHalted()  returns FALSE (0000ms, 0757ms total)
T2FCC 001:437 JLINK_IsHalted()  returns FALSE (0000ms, 0757ms total)
T2FCC 001:438 JLINK_IsHalted()  returns FALSE (0000ms, 0757ms total)
T2FCC 001:439 JLINK_IsHalted()  returns FALSE (0000ms, 0757ms total)
T2FCC 001:440 JLINK_IsHalted() -- CPU_ReadMem(2 bytes @ 0x20000000)  returns TRUE (0004ms, 0761ms total)
T2FCC 001:444 JLINK_ReadReg(R15 (PC))  returns 0x20000000 (0000ms, 0757ms total)
T2FCC 001:444 JLINK_ClrBPEx(BPHandle = 0x0000000A)  returns 0x00 (0000ms, 0757ms total)
T2FCC 001:444 JLINK_ReadReg(R0)  returns 0x00000000 (0001ms, 0758ms total)
T2FCC 001:445 JLINK_WriteMem(0x20000164, 0x0400 Bytes, ...) - Data: 60 1E F0 49 08 5C 16 28 04 D1 ED 48 FF F7 C8 F9 ... -- CPU_WriteMem(1024 bytes @ 0x20000164)  returns 0x400 (0011ms, 0769ms total)
T2FCC 001:456 JLINK_WriteReg(R0, 0x08001800)  returns 0x00 (0000ms, 0769ms total)
T2FCC 001:456 JLINK_WriteReg(R1, 0x00000400)  returns 0x00 (0000ms, 0769ms total)
T2FCC 001:456 JLINK_WriteReg(R2, 0x20000164)  returns 0x00 (0001ms, 0770ms total)
T2FCC 001:457 JLINK_WriteReg(R3, 0x00000000)  returns 0x00 (0000ms, 0770ms total)
T2FCC 001:457 JLINK_WriteReg(R4, 0x00000000)  returns 0x00 (0000ms, 0770ms total)
T2FCC 001:457 JLINK_WriteReg(R5, 0x00000000)  returns 0x00 (0000ms, 0770ms total)
T2FCC 001:457 JLINK_WriteReg(R6, 0x00000000)  returns 0x00 (0000ms, 0770ms total)
T2FCC 001:457 JLINK_WriteReg(R7, 0x00000000)  returns 0x00 (0000ms, 0770ms total)
T2FCC 001:457 JLINK_WriteReg(R8, 0x00000000)  returns 0x00 (0000ms, 0770ms total)
T2FCC 001:457 JLINK_WriteReg(R9, 0x20000160)  returns 0x00 (0000ms, 0770ms total)
T2FCC 001:457 JLINK_WriteReg(R10, 0x00000000)  returns 0x00 (0000ms, 0770ms total)
T2FCC 001:457 JLINK_WriteReg(R11, 0x00000000)  returns 0x00 (0000ms, 0770ms total)
T2FCC 001:457 JLINK_WriteReg(R12, 0x00000000)  returns 0x00 (0000ms, 0770ms total)
T2FCC 001:457 JLINK_WriteReg(R13 (SP), 0x20000800)  returns 0x00 (0000ms, 0770ms total)
T2FCC 001:457 JLINK_WriteReg(R14, 0x20000001)  returns 0x00 (0000ms, 0770ms total)
T2FCC 001:457 JLINK_WriteReg(R15 (PC), 0x200000F4)  returns 0x00 (0000ms, 0770ms total)
T2FCC 001:457 JLINK_WriteReg(XPSR, 0x01000000)  returns 0x00 (0000ms, 0770ms total)
T2FCC 001:457 JLINK_WriteReg(MSP, 0x20000800)  returns 0x00 (0000ms, 0770ms total)
T2FCC 001:457 JLINK_WriteReg(PSP, 0x20000800)  returns 0x00 (0000ms, 0770ms total)
T2FCC 001:457 JLINK_WriteReg(CFBP, 0x00000000)  returns 0x00 (0000ms, 0770ms total)
T2FCC 001:457 JLINK_SetBPEx(Addr = 0x20000000, Type = 0xFFFFFFF2)  returns 0x0000000B (0000ms, 0770ms total)
T2FCC 001:457 JLINK_Go() (0003ms, 0773ms total)
T2FCC 001:460 JLINK_IsHalted()  returns FALSE (0000ms, 0773ms total)
T2FCC 001:461 JLINK_IsHalted()  returns FALSE (0000ms, 0773ms total)
T2FCC 001:462 JLINK_IsHalted()  returns FALSE (0000ms, 0773ms total)
T2FCC 001:463 JLINK_IsHalted()  returns FALSE (0000ms, 0773ms total)
T2FCC 001:464 JLINK_IsHalted()  returns FALSE (0000ms, 0773ms total)
T2FCC 001:465 JLINK_IsHalted()  returns FALSE (0000ms, 0773ms total)
T2FCC 001:466 JLINK_IsHalted()  returns FALSE (0000ms, 0773ms total)
T2FCC 001:467 JLINK_IsHalted()  returns FALSE (0000ms, 0773ms total)
T2FCC 001:468 JLINK_IsHalted()  returns FALSE (0000ms, 0773ms total)
T2FCC 001:469 JLINK_IsHalted()  returns FALSE (0000ms, 0773ms total)
T2FCC 001:470 JLINK_IsHalted()  returns FALSE (0000ms, 0773ms total)
T2FCC 001:471 JLINK_IsHalted()  returns FALSE (0000ms, 0773ms total)
T2FCC 001:472 JLINK_IsHalted()  returns FALSE (0000ms, 0773ms total)
T2FCC 001:473 JLINK_IsHalted()  returns FALSE (0000ms, 0773ms total)
T2FCC 001:474 JLINK_IsHalted()  returns FALSE (0000ms, 0773ms total)
T2FCC 001:475 JLINK_IsHalted()  returns FALSE (0000ms, 0773ms total)
T2FCC 001:476 JLINK_IsHalted()  returns FALSE (0000ms, 0773ms total)
T2FCC 001:477 JLINK_IsHalted()  returns FALSE (0000ms, 0773ms total)
T2FCC 001:478 JLINK_IsHalted()  returns FALSE (0000ms, 0773ms total)
T2FCC 001:479 JLINK_IsHalted()  returns FALSE (0000ms, 0773ms total)
T2FCC 001:480 JLINK_IsHalted()  returns FALSE (0000ms, 0773ms total)
T2FCC 001:481 JLINK_IsHalted()  returns FALSE (0000ms, 0773ms total)
T2FCC 001:482 JLINK_IsHalted()  returns FALSE (0000ms, 0773ms total)
T2FCC 001:483 JLINK_IsHalted()  returns FALSE (0000ms, 0773ms total)
T2FCC 001:484 JLINK_IsHalted()  returns FALSE (0000ms, 0773ms total)
T2FCC 001:485 JLINK_IsHalted()  returns FALSE (0000ms, 0773ms total)
T2FCC 001:486 JLINK_IsHalted()  returns FALSE (0000ms, 0773ms total)
T2FCC 001:487 JLINK_IsHalted()  returns FALSE (0000ms, 0773ms total)
T2FCC 001:490 JLINK_IsHalted()  returns FALSE (0000ms, 0773ms total)
T2FCC 001:491 JLINK_IsHalted() -- CPU_ReadMem(2 bytes @ 0x20000000)  returns TRUE (0004ms, 0777ms total)
T2FCC 001:495 JLINK_ReadReg(R15 (PC))  returns 0x20000000 (0000ms, 0773ms total)
T2FCC 001:495 JLINK_ClrBPEx(BPHandle = 0x0000000B)  returns 0x00 (0000ms, 0773ms total)
T2FCC 001:495 JLINK_ReadReg(R0)  returns 0x00000000 (0001ms, 0774ms total)
T2FCC 001:496 JLINK_WriteMem(0x20000164, 0x0400 Bytes, ...) - Data: 30 00 00 20 39 00 00 20 41 54 2B 4E 41 4D 45 3D ... -- CPU_WriteMem(1024 bytes @ 0x20000164)  returns 0x400 (0011ms, 0785ms total)
T2FCC 001:507 JLINK_WriteReg(R0, 0x08001C00)  returns 0x00 (0000ms, 0785ms total)
T2FCC 001:507 JLINK_WriteReg(R1, 0x00000400)  returns 0x00 (0000ms, 0785ms total)
T2FCC 001:507 JLINK_WriteReg(R2, 0x20000164)  returns 0x00 (0001ms, 0786ms total)
T2FCC 001:508 JLINK_WriteReg(R3, 0x00000000)  returns 0x00 (0000ms, 0786ms total)
T2FCC 001:508 JLINK_WriteReg(R4, 0x00000000)  returns 0x00 (0000ms, 0786ms total)
T2FCC 001:508 JLINK_WriteReg(R5, 0x00000000)  returns 0x00 (0000ms, 0786ms total)
T2FCC 001:508 JLINK_WriteReg(R6, 0x00000000)  returns 0x00 (0000ms, 0786ms total)
T2FCC 001:508 JLINK_WriteReg(R7, 0x00000000)  returns 0x00 (0000ms, 0786ms total)
T2FCC 001:508 JLINK_WriteReg(R8, 0x00000000)  returns 0x00 (0000ms, 0786ms total)
T2FCC 001:508 JLINK_WriteReg(R9, 0x20000160)  returns 0x00 (0000ms, 0786ms total)
T2FCC 001:508 JLINK_WriteReg(R10, 0x00000000)  returns 0x00 (0000ms, 0786ms total)
T2FCC 001:508 JLINK_WriteReg(R11, 0x00000000)  returns 0x00 (0000ms, 0786ms total)
T2FCC 001:508 JLINK_WriteReg(R12, 0x00000000)  returns 0x00 (0000ms, 0786ms total)
T2FCC 001:508 JLINK_WriteReg(R13 (SP), 0x20000800)  returns 0x00 (0000ms, 0786ms total)
T2FCC 001:508 JLINK_WriteReg(R14, 0x20000001)  returns 0x00 (0000ms, 0786ms total)
T2FCC 001:508 JLINK_WriteReg(R15 (PC), 0x200000F4)  returns 0x00 (0000ms, 0786ms total)
T2FCC 001:508 JLINK_WriteReg(XPSR, 0x01000000)  returns 0x00 (0000ms, 0786ms total)
T2FCC 001:508 JLINK_WriteReg(MSP, 0x20000800)  returns 0x00 (0000ms, 0786ms total)
T2FCC 001:508 JLINK_WriteReg(PSP, 0x20000800)  returns 0x00 (0000ms, 0786ms total)
T2FCC 001:508 JLINK_WriteReg(CFBP, 0x00000000)  returns 0x00 (0000ms, 0786ms total)
T2FCC 001:508 JLINK_SetBPEx(Addr = 0x20000000, Type = 0xFFFFFFF2)  returns 0x0000000C (0000ms, 0786ms total)
T2FCC 001:508 JLINK_Go() (0002ms, 0788ms total)
T2FCC 001:510 JLINK_IsHalted()  returns FALSE (0001ms, 0789ms total)
T2FCC 001:512 JLINK_IsHalted()  returns FALSE (0000ms, 0788ms total)
T2FCC 001:513 JLINK_IsHalted()  returns FALSE (0000ms, 0788ms total)
T2FCC 001:514 JLINK_IsHalted()  returns FALSE (0000ms, 0788ms total)
T2FCC 001:515 JLINK_IsHalted()  returns FALSE (0000ms, 0788ms total)
T2FCC 001:516 JLINK_IsHalted()  returns FALSE (0000ms, 0788ms total)
T2FCC 001:517 JLINK_IsHalted()  returns FALSE (0000ms, 0788ms total)
T2FCC 001:518 JLINK_IsHalted()  returns FALSE (0000ms, 0788ms total)
T2FCC 001:531 JLINK_IsHalted()  returns FALSE (0000ms, 0788ms total)
T2FCC 001:532 JLINK_IsHalted()  returns FALSE (0000ms, 0788ms total)
T2FCC 001:533 JLINK_IsHalted()  returns FALSE (0000ms, 0788ms total)
T2FCC 001:534 JLINK_IsHalted()  returns FALSE (0000ms, 0788ms total)
T2FCC 001:535 JLINK_IsHalted()  returns FALSE (0000ms, 0788ms total)
T2FCC 001:536 JLINK_IsHalted()  returns FALSE (0000ms, 0788ms total)
T2FCC 001:537 JLINK_IsHalted()  returns FALSE (0000ms, 0788ms total)
T2FCC 001:538 JLINK_IsHalted()  returns FALSE (0000ms, 0788ms total)
T2FCC 001:539 JLINK_IsHalted()  returns FALSE (0000ms, 0788ms total)
T2FCC 001:540 JLINK_IsHalted()  returns FALSE (0000ms, 0788ms total)
T2FCC 001:541 JLINK_IsHalted()  returns FALSE (0000ms, 0788ms total)
T2FCC 001:542 JLINK_IsHalted() -- CPU_ReadMem(2 bytes @ 0x20000000)  returns TRUE (0004ms, 0792ms total)
T2FCC 001:546 JLINK_ReadReg(R15 (PC))  returns 0x20000000 (0000ms, 0788ms total)
T2FCC 001:546 JLINK_ClrBPEx(BPHandle = 0x0000000C)  returns 0x00 (0000ms, 0788ms total)
T2FCC 001:546 JLINK_ReadReg(R0)  returns 0x00000000 (0000ms, 0788ms total)
T2FCC 001:547 JLINK_WriteMem(0x20000164, 0x0400 Bytes, ...) - Data: 09 E0 0B 24 04 E0 30 5D FF F7 11 FF 60 1C C4 B2 ... -- CPU_WriteMem(1024 bytes @ 0x20000164)  returns 0x400 (0011ms, 0799ms total)
T2FCC 001:558 JLINK_WriteReg(R0, 0x08002000)  returns 0x00 (0000ms, 0799ms total)
T2FCC 001:559 JLINK_WriteReg(R1, 0x00000400)  returns 0x00 (0000ms, 0800ms total)
T2FCC 001:559 JLINK_WriteReg(R2, 0x20000164)  returns 0x00 (0000ms, 0800ms total)
T2FCC 001:559 JLINK_WriteReg(R3, 0x00000000)  returns 0x00 (0000ms, 0800ms total)
T2FCC 001:559 JLINK_WriteReg(R4, 0x00000000)  returns 0x00 (0000ms, 0800ms total)
T2FCC 001:559 JLINK_WriteReg(R5, 0x00000000)  returns 0x00 (0000ms, 0800ms total)
T2FCC 001:559 JLINK_WriteReg(R6, 0x00000000)  returns 0x00 (0000ms, 0800ms total)
T2FCC 001:559 JLINK_WriteReg(R7, 0x00000000)  returns 0x00 (0000ms, 0800ms total)
T2FCC 001:559 JLINK_WriteReg(R8, 0x00000000)  returns 0x00 (0000ms, 0800ms total)
T2FCC 001:559 JLINK_WriteReg(R9, 0x20000160)  returns 0x00 (0000ms, 0800ms total)
T2FCC 001:559 JLINK_WriteReg(R10, 0x00000000)  returns 0x00 (0000ms, 0800ms total)
T2FCC 001:559 JLINK_WriteReg(R11, 0x00000000)  returns 0x00 (0000ms, 0800ms total)
T2FCC 001:559 JLINK_WriteReg(R12, 0x00000000)  returns 0x00 (0000ms, 0800ms total)
T2FCC 001:559 JLINK_WriteReg(R13 (SP), 0x20000800)  returns 0x00 (0000ms, 0800ms total)
T2FCC 001:559 JLINK_WriteReg(R14, 0x20000001)  returns 0x00 (0000ms, 0800ms total)
T2FCC 001:559 JLINK_WriteReg(R15 (PC), 0x200000F4)  returns 0x00 (0000ms, 0800ms total)
T2FCC 001:559 JLINK_WriteReg(XPSR, 0x01000000)  returns 0x00 (0000ms, 0800ms total)
T2FCC 001:559 JLINK_WriteReg(MSP, 0x20000800)  returns 0x00 (0000ms, 0800ms total)
T2FCC 001:559 JLINK_WriteReg(PSP, 0x20000800)  returns 0x00 (0000ms, 0800ms total)
T2FCC 001:559 JLINK_WriteReg(CFBP, 0x00000000)  returns 0x00 (0000ms, 0800ms total)
T2FCC 001:559 JLINK_SetBPEx(Addr = 0x20000000, Type = 0xFFFFFFF2)  returns 0x0000000D (0000ms, 0800ms total)
T2FCC 001:559 JLINK_Go() (0003ms, 0803ms total)
T2FCC 001:562 JLINK_IsHalted()  returns FALSE (0001ms, 0804ms total)
T2FCC 001:564 JLINK_IsHalted()  returns FALSE (0000ms, 0803ms total)
T2FCC 001:565 JLINK_IsHalted()  returns FALSE (0000ms, 0803ms total)
T2FCC 001:566 JLINK_IsHalted()  returns FALSE (0000ms, 0803ms total)
T2FCC 001:567 JLINK_IsHalted()  returns FALSE (0000ms, 0803ms total)
T2FCC 001:568 JLINK_IsHalted()  returns FALSE (0000ms, 0803ms total)
T2FCC 001:569 JLINK_IsHalted()  returns FALSE (0000ms, 0803ms total)
T2FCC 001:570 JLINK_IsHalted()  returns FALSE (0000ms, 0803ms total)
T2FCC 001:571 JLINK_IsHalted()  returns FALSE (0000ms, 0803ms total)
T2FCC 001:572 JLINK_IsHalted()  returns FALSE (0000ms, 0803ms total)
T2FCC 001:573 JLINK_IsHalted()  returns FALSE (0000ms, 0803ms total)
T2FCC 001:574 JLINK_IsHalted()  returns FALSE (0000ms, 0803ms total)
T2FCC 001:575 JLINK_IsHalted()  returns FALSE (0000ms, 0803ms total)
T2FCC 001:577 JLINK_IsHalted()  returns FALSE (0000ms, 0803ms total)
T2FCC 001:578 JLINK_IsHalted()  returns FALSE (0000ms, 0803ms total)
T2FCC 001:579 JLINK_IsHalted()  returns FALSE (0000ms, 0803ms total)
T2FCC 001:580 JLINK_IsHalted()  returns FALSE (0000ms, 0803ms total)
T2FCC 001:581 JLINK_IsHalted()  returns FALSE (0001ms, 0804ms total)
T2FCC 001:583 JLINK_IsHalted()  returns FALSE (0000ms, 0803ms total)
T2FCC 001:584 JLINK_IsHalted()  returns FALSE (0000ms, 0803ms total)
T2FCC 001:585 JLINK_IsHalted()  returns FALSE (0000ms, 0803ms total)
T2FCC 001:586 JLINK_IsHalted()  returns FALSE (0000ms, 0803ms total)
T2FCC 001:587 JLINK_IsHalted()  returns FALSE (0000ms, 0803ms total)
T2FCC 001:588 JLINK_IsHalted()  returns FALSE (0000ms, 0803ms total)
T2FCC 001:589 JLINK_IsHalted()  returns FALSE (0000ms, 0803ms total)
T2FCC 001:590 JLINK_IsHalted()  returns FALSE (0000ms, 0803ms total)
T2FCC 001:591 JLINK_IsHalted()  returns FALSE (0000ms, 0803ms total)
T2FCC 001:592 JLINK_IsHalted()  returns FALSE (0000ms, 0803ms total)
T2FCC 001:593 JLINK_IsHalted() -- CPU_ReadMem(2 bytes @ 0x20000000)  returns TRUE (0005ms, 0808ms total)
T2FCC 001:598 JLINK_ReadReg(R15 (PC))  returns 0x20000000 (0000ms, 0803ms total)
T2FCC 001:598 JLINK_ClrBPEx(BPHandle = 0x0000000D)  returns 0x00 (0000ms, 0803ms total)
T2FCC 001:598 JLINK_ReadReg(R0)  returns 0x00000000 (0000ms, 0803ms total)
T2FCC 001:598 JLINK_WriteMem(0x20000164, 0x0400 Bytes, ...) - Data: 04 A8 FF F7 0E FF 9D F8 0C 00 90 28 0F D1 9D F8 ... -- CPU_WriteMem(1024 bytes @ 0x20000164)  returns 0x400 (0012ms, 0815ms total)
T2FCC 001:610 JLINK_WriteReg(R0, 0x08002400)  returns 0x00 (0000ms, 0815ms total)
T2FCC 001:610 JLINK_WriteReg(R1, 0x00000400)  returns 0x00 (0000ms, 0815ms total)
T2FCC 001:610 JLINK_WriteReg(R2, 0x20000164)  returns 0x00 (0000ms, 0815ms total)
T2FCC 001:610 JLINK_WriteReg(R3, 0x00000000)  returns 0x00 (0000ms, 0815ms total)
T2FCC 001:610 JLINK_WriteReg(R4, 0x00000000)  returns 0x00 (0000ms, 0815ms total)
T2FCC 001:610 JLINK_WriteReg(R5, 0x00000000)  returns 0x00 (0000ms, 0815ms total)
T2FCC 001:610 JLINK_WriteReg(R6, 0x00000000)  returns 0x00 (0000ms, 0815ms total)
T2FCC 001:610 JLINK_WriteReg(R7, 0x00000000)  returns 0x00 (0000ms, 0815ms total)
T2FCC 001:610 JLINK_WriteReg(R8, 0x00000000)  returns 0x00 (0000ms, 0815ms total)
T2FCC 001:610 JLINK_WriteReg(R9, 0x20000160)  returns 0x00 (0000ms, 0815ms total)
T2FCC 001:610 JLINK_WriteReg(R10, 0x00000000)  returns 0x00 (0000ms, 0815ms total)
T2FCC 001:610 JLINK_WriteReg(R11, 0x00000000)  returns 0x00 (0000ms, 0815ms total)
T2FCC 001:610 JLINK_WriteReg(R12, 0x00000000)  returns 0x00 (0000ms, 0815ms total)
T2FCC 001:610 JLINK_WriteReg(R13 (SP), 0x20000800)  returns 0x00 (0000ms, 0815ms total)
T2FCC 001:610 JLINK_WriteReg(R14, 0x20000001)  returns 0x00 (0000ms, 0815ms total)
T2FCC 001:610 JLINK_WriteReg(R15 (PC), 0x200000F4)  returns 0x00 (0000ms, 0815ms total)
T2FCC 001:610 JLINK_WriteReg(XPSR, 0x01000000)  returns 0x00 (0000ms, 0815ms total)
T2FCC 001:611 JLINK_WriteReg(MSP, 0x20000800)  returns 0x00 (0000ms, 0815ms total)
T2FCC 001:611 JLINK_WriteReg(PSP, 0x20000800)  returns 0x00 (0000ms, 0815ms total)
T2FCC 001:611 JLINK_WriteReg(CFBP, 0x00000000)  returns 0x00 (0000ms, 0815ms total)
T2FCC 001:611 JLINK_SetBPEx(Addr = 0x20000000, Type = 0xFFFFFFF2)  returns 0x0000000E (0000ms, 0815ms total)
T2FCC 001:611 JLINK_Go() (0002ms, 0817ms total)
T2FCC 001:613 JLINK_IsHalted()  returns FALSE (0001ms, 0818ms total)
T2FCC 001:615 JLINK_IsHalted()  returns FALSE (0000ms, 0817ms total)
T2FCC 001:616 JLINK_IsHalted()  returns FALSE (0000ms, 0817ms total)
T2FCC 001:617 JLINK_IsHalted()  returns FALSE (0000ms, 0817ms total)
T2FCC 001:618 JLINK_IsHalted()  returns FALSE (0000ms, 0817ms total)
T2FCC 001:619 JLINK_IsHalted()  returns FALSE (0000ms, 0817ms total)
T2FCC 001:620 JLINK_IsHalted()  returns FALSE (0000ms, 0817ms total)
T2FCC 001:621 JLINK_IsHalted()  returns FALSE (0000ms, 0817ms total)
T2FCC 001:622 JLINK_IsHalted()  returns FALSE (0000ms, 0817ms total)
T2FCC 001:623 JLINK_IsHalted()  returns FALSE (0000ms, 0817ms total)
T2FCC 001:624 JLINK_IsHalted()  returns FALSE (0000ms, 0817ms total)
T2FCC 001:625 JLINK_IsHalted()  returns FALSE (0000ms, 0817ms total)
T2FCC 001:626 JLINK_IsHalted()  returns FALSE (0000ms, 0817ms total)
T2FCC 001:627 JLINK_IsHalted()  returns FALSE (0000ms, 0817ms total)
T2FCC 001:628 JLINK_IsHalted()  returns FALSE (0000ms, 0817ms total)
T2FCC 001:629 JLINK_IsHalted()  returns FALSE (0000ms, 0817ms total)
T2FCC 001:641 JLINK_IsHalted()  returns FALSE (0000ms, 0817ms total)
T2FCC 001:642 JLINK_IsHalted()  returns FALSE (0000ms, 0817ms total)
T2FCC 001:643 JLINK_IsHalted()  returns FALSE (0001ms, 0818ms total)
T2FCC 001:648 JLINK_IsHalted() -- CPU_ReadMem(2 bytes @ 0x20000000)  returns TRUE (0005ms, 0822ms total)
T2FCC 001:653 JLINK_ReadReg(R15 (PC))  returns 0x20000000 (0000ms, 0817ms total)
T2FCC 001:653 JLINK_ClrBPEx(BPHandle = 0x0000000E)  returns 0x00 (0000ms, 0817ms total)
T2FCC 001:653 JLINK_ReadReg(R0)  returns 0x00000000 (0000ms, 0817ms total)
T2FCC 001:654 JLINK_WriteMem(0x20000164, 0x0400 Bytes, ...) - Data: 00 21 8E 4A 11 54 41 1C 88 B2 FF 28 F8 DD 70 47 ... -- CPU_WriteMem(1024 bytes @ 0x20000164)  returns 0x400 (0012ms, 0829ms total)
T2FCC 001:666 JLINK_WriteReg(R0, 0x08002800)  returns 0x00 (0000ms, 0829ms total)
T2FCC 001:666 JLINK_WriteReg(R1, 0x00000400)  returns 0x00 (0000ms, 0829ms total)
T2FCC 001:666 JLINK_WriteReg(R2, 0x20000164)  returns 0x00 (0000ms, 0829ms total)
T2FCC 001:666 JLINK_WriteReg(R3, 0x00000000)  returns 0x00 (0000ms, 0829ms total)
T2FCC 001:666 JLINK_WriteReg(R4, 0x00000000)  returns 0x00 (0000ms, 0829ms total)
T2FCC 001:666 JLINK_WriteReg(R5, 0x00000000)  returns 0x00 (0000ms, 0829ms total)
T2FCC 001:666 JLINK_WriteReg(R6, 0x00000000)  returns 0x00 (0000ms, 0829ms total)
T2FCC 001:666 JLINK_WriteReg(R7, 0x00000000)  returns 0x00 (0000ms, 0829ms total)
T2FCC 001:666 JLINK_WriteReg(R8, 0x00000000)  returns 0x00 (0000ms, 0829ms total)
T2FCC 001:666 JLINK_WriteReg(R9, 0x20000160)  returns 0x00 (0000ms, 0829ms total)
T2FCC 001:666 JLINK_WriteReg(R10, 0x00000000)  returns 0x00 (0000ms, 0829ms total)
T2FCC 001:666 JLINK_WriteReg(R11, 0x00000000)  returns 0x00 (0000ms, 0829ms total)
T2FCC 001:666 JLINK_WriteReg(R12, 0x00000000)  returns 0x00 (0000ms, 0829ms total)
T2FCC 001:666 JLINK_WriteReg(R13 (SP), 0x20000800)  returns 0x00 (0000ms, 0829ms total)
T2FCC 001:666 JLINK_WriteReg(R14, 0x20000001)  returns 0x00 (0000ms, 0829ms total)
T2FCC 001:666 JLINK_WriteReg(R15 (PC), 0x200000F4)  returns 0x00 (0000ms, 0829ms total)
T2FCC 001:666 JLINK_WriteReg(XPSR, 0x01000000)  returns 0x00 (0000ms, 0829ms total)
T2FCC 001:666 JLINK_WriteReg(MSP, 0x20000800)  returns 0x00 (0001ms, 0830ms total)
T2FCC 001:667 JLINK_WriteReg(PSP, 0x20000800)  returns 0x00 (0000ms, 0830ms total)
T2FCC 001:667 JLINK_WriteReg(CFBP, 0x00000000)  returns 0x00 (0000ms, 0830ms total)
T2FCC 001:667 JLINK_SetBPEx(Addr = 0x20000000, Type = 0xFFFFFFF2)  returns 0x0000000F (0000ms, 0830ms total)
T2FCC 001:667 JLINK_Go() (0002ms, 0832ms total)
T2FCC 001:669 JLINK_IsHalted()  returns FALSE (0001ms, 0833ms total)
T2FCC 001:671 JLINK_IsHalted()  returns FALSE (0000ms, 0832ms total)
T2FCC 001:672 JLINK_IsHalted()  returns FALSE (0000ms, 0832ms total)
T2FCC 001:673 JLINK_IsHalted()  returns FALSE (0000ms, 0832ms total)
T2FCC 001:674 JLINK_IsHalted()  returns FALSE (0000ms, 0832ms total)
T2FCC 001:675 JLINK_IsHalted()  returns FALSE (0000ms, 0832ms total)
T2FCC 001:676 JLINK_IsHalted()  returns FALSE (0000ms, 0832ms total)
